 time            v(A0)           v(A1)           v(A2)           v(A3)           v(B0)           v(B1)           v(B2)           v(B3)           v(Cin)          v(S0)           v(S1)           v(S2)           v(S3)           v(C4)          
 0.00000000e+00  0.00000000e+00  0.00000000e+00  0.00000000e+00  0.00000000e+00  0.00000000e+00  0.00000000e+00  0.00000000e+00  0.00000000e+00  0.00000000e+00  3.96027125e-08  4.05658436e-08  3.96027123e-08  4.22806136e-08  1.95209144e-08 
 1.00000000e-12  1.80000000e-02  1.80000000e-02  1.80000000e-02  1.80000000e-02  1.80000000e-02  1.80000000e-02  1.80000000e-02  1.80000000e-02  1.80000000e-02  5.53587580e-04  3.00709118e-05  4.98108775e-05  2.09771057e-05  5.01261005e-05 
 2.00000000e-12  3.60000000e-02  3.60000000e-02  3.60000000e-02  3.60000000e-02  3.60000000e-02  3.60000000e-02  3.60000000e-02  3.60000000e-02  3.60000000e-02  1.06347385e-03  5.25973008e-05  8.95426693e-05  3.75565113e-05  7.35100434e-05 
 4.00000000e-12  7.20000000e-02  7.20000000e-02  7.20000000e-02  7.20000000e-02  7.20000000e-02  7.20000000e-02  7.20000000e-02  7.20000000e-02  7.20000000e-02  1.94097960e-03  8.16031594e-05  1.44326821e-04  6.06714789e-05  8.54510769e-05 
 8.00000000e-12  1.44000000e-01  1.44000000e-01  1.44000000e-01  1.44000000e-01  1.44000000e-01  1.44000000e-01  1.44000000e-01  1.44000000e-01  1.44000000e-01  2.83198694e-03  7.17405316e-05  1.54288113e-04  6.06750549e-05  2.80890938e-05 
 1.60000000e-11  2.88000000e-01  2.88000000e-01  2.88000000e-01  2.88000000e-01  2.88000000e-01  2.88000000e-01  2.88000000e-01  2.88000000e-01  2.88000000e-01  2.88667049e-03  4.04793293e-06  5.51101192e-05  1.44105652e-05 -4.15044438e-05 
 3.20000000e-11  5.76000000e-01  5.76000000e-01  5.76000000e-01  5.76000000e-01  5.76000000e-01  5.76000000e-01  5.76000000e-01  5.76000000e-01  5.76000000e-01  1.84465401e-03 -3.36771392e-05 -6.45384105e-05 -2.84743908e-05 -7.59732256e-06 
 6.40000000e-11  1.15200000e+00  1.15200000e+00  1.15200000e+00  1.15200000e+00  1.15200000e+00  1.15200000e+00  1.15200000e+00  1.15200000e+00  1.15200000e+00 -5.73737654e-03 -1.24515403e-04 -3.57119640e-04 -1.46673699e-04 -2.44890915e-05 
 9.28802436e-11  1.67184439e+00  1.67184439e+00  1.67184439e+00  1.67184439e+00  1.67184439e+00  1.67184439e+00  1.67184439e+00  1.67184439e+00  1.67184439e+00 -4.26039579e-02 -9.25651889e-05 -2.80531887e-04 -8.65740522e-05 -1.71862153e-04 
 1.00000000e-10  1.80000000e+00  1.80000000e+00  1.80000000e+00  1.80000000e+00  1.80000000e+00  1.80000000e+00  1.80000000e+00  1.80000000e+00  1.80000000e+00 -4.42165142e-02  2.05270710e-04  4.17194120e-04  2.44806253e-04  1.55269613e-04 
 1.03216485e-10  1.80000000e+00  1.80000000e+00  1.80000000e+00  1.80000000e+00  1.80000000e+00  1.80000000e+00  1.80000000e+00  1.80000000e+00  1.80000000e+00 -3.48336682e-02  3.57794057e-04  8.38944181e-04  4.38220565e-04  2.68011792e-04 
 1.09649455e-10  1.80000000e+00  1.80000000e+00  1.80000000e+00  1.80000000e+00  1.80000000e+00  1.80000000e+00  1.80000000e+00  1.80000000e+00  1.80000000e+00 -5.79197356e-03  6.52168557e-04  1.63014557e-03  7.83874656e-04  5.76763007e-04 
 1.22515396e-10  1.80000000e+00  1.80000000e+00  1.80000000e+00  1.80000000e+00  1.80000000e+00  1.80000000e+00  1.80000000e+00  1.80000000e+00  1.80000000e+00  1.24013482e-01  7.84853461e-04  2.12029681e-03  9.24981666e-04  1.10087871e-03 
 1.46261208e-10  1.80000000e+00  1.80000000e+00  1.80000000e+00  1.80000000e+00  1.80000000e+00  1.80000000e+00  1.80000000e+00  1.80000000e+00  1.80000000e+00  5.11156453e-01 -8.31604834e-05  1.11102140e-04 -9.06355929e-05  1.02516402e-03 
 1.75464785e-10  1.80000000e+00  1.80000000e+00  1.80000000e+00  1.80000000e+00  1.80000000e+00  1.80000000e+00  1.80000000e+00  1.80000000e+00  1.80000000e+00  1.01728187e+00 -5.78432150e-04 -1.51358036e-03 -7.75401804e-04 -2.57083336e-03 
 2.10669759e-10  1.80000000e+00  1.80000000e+00  1.80000000e+00  1.80000000e+00  1.80000000e+00  1.80000000e+00  1.80000000e+00  1.80000000e+00  1.80000000e+00  1.50167413e+00 -2.45238506e-04 -6.35843230e-04 -2.48094710e-04 -8.46022399e-03 
 2.56840360e-10  1.80000000e+00  1.80000000e+00  1.80000000e+00  1.80000000e+00  1.80000000e+00  1.80000000e+00  1.80000000e+00  1.80000000e+00  1.80000000e+00  1.77666636e+00  1.36137433e-04  2.68547047e-04  1.99139053e-04 -1.18100836e-02 
 3.03628085e-10  1.80000000e+00  1.80000000e+00  1.80000000e+00  1.80000000e+00  1.80000000e+00  1.80000000e+00  1.80000000e+00  1.80000000e+00  1.80000000e+00  1.79875057e+00  3.16053658e-03  4.58896069e-04  3.87293519e-04 -4.17405282e-03 
 3.59233520e-10  1.80000000e+00  1.80000000e+00  1.80000000e+00  1.80000000e+00  1.80000000e+00  1.80000000e+00  1.80000000e+00  1.80000000e+00  1.80000000e+00  1.79950463e+00 -2.37983684e-02  1.39597452e-03  1.66526461e-03  7.40700409e-02 
 4.10743817e-10  1.80000000e+00  1.80000000e+00  1.80000000e+00  1.80000000e+00  1.80000000e+00  1.80000000e+00  1.80000000e+00  1.80000000e+00  1.80000000e+00  1.79944855e+00  8.01101000e-02 -1.94043793e-02 -4.27285788e-03  3.39411838e-01 
 4.55862861e-10  1.80000000e+00  1.80000000e+00  1.80000000e+00  1.80000000e+00  1.80000000e+00  1.80000000e+00  1.80000000e+00  1.80000000e+00  1.80000000e+00  1.79952878e+00  8.24033557e-01  9.08677486e-02 -5.45208190e-02  8.09661474e-01 
 4.99196766e-10  1.80000000e+00  1.80000000e+00  1.80000000e+00  1.80000000e+00  1.80000000e+00  1.80000000e+00  1.80000000e+00  1.80000000e+00  1.80000000e+00  1.79956524e+00  1.56411119e+00  6.72120917e-01  2.16229043e-01  1.36767902e+00 
 5.45278700e-10  1.80000000e+00  1.80000000e+00  1.80000000e+00  1.80000000e+00  1.80000000e+00  1.80000000e+00  1.80000000e+00  1.80000000e+00  1.80000000e+00  1.79959976e+00  1.78021833e+00  1.42025065e+00  1.10176644e+00  1.72627495e+00 
 5.92426601e-10  1.80000000e+00  1.80000000e+00  1.80000000e+00  1.80000000e+00  1.80000000e+00  1.80000000e+00  1.80000000e+00  1.80000000e+00  1.80000000e+00  1.79964373e+00  1.80072655e+00  1.74801518e+00  1.70918139e+00  1.79475921e+00 
 6.36615271e-10  1.80000000e+00  1.80000000e+00  1.80000000e+00  1.80000000e+00  1.80000000e+00  1.80000000e+00  1.80000000e+00  1.80000000e+00  1.80000000e+00  1.79965886e+00  1.79929415e+00  1.79727980e+00  1.79064849e+00  1.79779626e+00 
 6.90008270e-10  1.80000000e+00  1.80000000e+00  1.80000000e+00  1.80000000e+00  1.80000000e+00  1.80000000e+00  1.80000000e+00  1.80000000e+00  1.80000000e+00  1.79969826e+00  1.80044992e+00  1.79840055e+00  1.80162596e+00  1.79874407e+00 
 7.52788575e-10  1.80000000e+00  1.80000000e+00  1.80000000e+00  1.80000000e+00  1.80000000e+00  1.80000000e+00  1.80000000e+00  1.80000000e+00  1.80000000e+00  1.79971562e+00  1.79965091e+00  1.79988826e+00  1.79917613e+00  1.79947616e+00 
 8.78349184e-10  1.80000000e+00  1.80000000e+00  1.80000000e+00  1.80000000e+00  1.80000000e+00  1.80000000e+00  1.80000000e+00  1.80000000e+00  1.80000000e+00  1.79976807e+00  1.80031549e+00  1.79894997e+00  1.80063188e+00  1.79958821e+00 
 1.10770626e-09  1.80000000e+00  1.80000000e+00  1.80000000e+00  1.80000000e+00  1.80000000e+00  1.80000000e+00  1.80000000e+00  1.80000000e+00  1.80000000e+00  1.79981145e+00  1.79969901e+00  1.80022607e+00  1.79945242e+00  1.80002377e+00 
 1.47465409e-09  1.80000000e+00  1.80000000e+00  1.80000000e+00  1.80000000e+00  1.80000000e+00  1.80000000e+00  1.80000000e+00  1.80000000e+00  1.80000000e+00  1.79986888e+00  1.80029303e+00  1.79928782e+00  1.80050427e+00  1.79985156e+00 
 2.15770862e-09  1.80000000e+00  1.80000000e+00  1.80000000e+00  1.80000000e+00  1.80000000e+00  1.80000000e+00  1.80000000e+00  1.80000000e+00  1.80000000e+00  1.79990585e+00  1.79971144e+00  1.80040192e+00  1.79951906e+00  1.80010730e+00 
 3.10215492e-09  1.80000000e+00  1.80000000e+00  1.80000000e+00  1.80000000e+00  1.80000000e+00  1.80000000e+00  1.80000000e+00  1.80000000e+00  1.80000000e+00  1.79994279e+00  1.80028616e+00  1.79942341e+00  1.80046683e+00  1.79988330e+00 
 4.82056905e-09  1.80000000e+00  1.80000000e+00  1.80000000e+00  1.80000000e+00  1.80000000e+00  1.80000000e+00  1.80000000e+00  1.80000000e+00  1.80000000e+00  1.79995749e+00  1.79971584e+00  1.80046355e+00  1.79954235e+00  1.80011226e+00 
 7.54165304e-09  1.80000000e+00  1.80000000e+00  1.80000000e+00  1.80000000e+00  1.80000000e+00  1.80000000e+00  1.80000000e+00  1.80000000e+00  1.80000000e+00  1.79997992e+00  1.80028370e+00  1.79947347e+00  1.80045366e+00  1.79988733e+00 
 1.01000000e-08  1.80000000e+00  1.80000000e+00  1.80000000e+00  1.80000000e+00  1.80000000e+00  1.80000000e+00  1.80000000e+00  1.80000000e+00  1.80000000e+00  1.79997809e+00  1.79971779e+00  1.80048322e+00  1.79955263e+00  1.80011173e+00 
 1.01100000e-08  1.62000000e+00  1.80000000e+00  1.80000000e+00  1.80000000e+00  1.80000000e+00  1.80000000e+00  1.80000000e+00  1.80000000e+00  1.80000000e+00  1.79996542e+00  1.80000603e+00  1.80009900e+00  1.79985620e+00  1.80002941e+00 
 1.01300000e-08  1.26000000e+00  1.80000000e+00  1.80000000e+00  1.80000000e+00  1.80000000e+00  1.80000000e+00  1.80000000e+00  1.80000000e+00  1.80000000e+00  1.79998381e+00  1.79998866e+00  1.79992344e+00  1.79999880e+00  1.79998600e+00 
 1.01700000e-08  5.40000000e-01  1.80000000e+00  1.80000000e+00  1.80000000e+00  1.80000000e+00  1.80000000e+00  1.80000000e+00  1.80000000e+00  1.80000000e+00  1.80001270e+00  1.79999408e+00  1.80000910e+00  1.79999440e+00  1.80001122e+00 
 1.02000000e-08  0.00000000e+00  1.80000000e+00  1.80000000e+00  1.80000000e+00  1.80000000e+00  1.80000000e+00  1.80000000e+00  1.80000000e+00  1.80000000e+00  1.79999309e+00  1.79999615e+00  1.79995567e+00  1.80000174e+00  1.79999169e+00 
 1.02062950e-08  0.00000000e+00  1.80000000e+00  1.80000000e+00  1.80000000e+00  1.80000000e+00  1.80000000e+00  1.80000000e+00  1.80000000e+00  1.80000000e+00  1.79999502e+00  1.79996934e+00  1.79997251e+00  1.79999980e+00  1.79999136e+00 
 1.02188851e-08  0.00000000e+00  1.80000000e+00  1.80000000e+00  1.80000000e+00  1.80000000e+00  1.80000000e+00  1.80000000e+00  1.80000000e+00  1.80000000e+00  1.79996330e+00  1.79993227e+00  1.79996785e+00  1.79999709e+00  1.79999277e+00 
 1.02440652e-08  0.00000000e+00  1.80000000e+00  1.80000000e+00  1.80000000e+00  1.80000000e+00  1.80000000e+00  1.80000000e+00  1.80000000e+00  1.80000000e+00  1.79971623e+00  1.80000746e+00  1.79998448e+00  1.80000153e+00  1.80001298e+00 
 1.02789023e-08  0.00000000e+00  1.80000000e+00  1.80000000e+00  1.80000000e+00  1.80000000e+00  1.80000000e+00  1.80000000e+00  1.80000000e+00  1.80000000e+00  1.79983771e+00  1.80010586e+00  1.80000098e+00  1.80000206e+00  1.80000203e+00 
 1.03120849e-08  0.00000000e+00  1.80000000e+00  1.80000000e+00  1.80000000e+00  1.80000000e+00  1.80000000e+00  1.80000000e+00  1.80000000e+00  1.80000000e+00  1.80235205e+00  1.80034542e+00  1.79997749e+00  1.79999857e+00  1.79999061e+00 
 1.03472909e-08  0.00000000e+00  1.80000000e+00  1.80000000e+00  1.80000000e+00  1.80000000e+00  1.80000000e+00  1.80000000e+00  1.80000000e+00  1.80000000e+00  1.80249801e+00  1.79932642e+00  1.79997866e+00  1.79999953e+00  1.80000367e+00 
 1.03893040e-08  0.00000000e+00  1.80000000e+00  1.80000000e+00  1.80000000e+00  1.80000000e+00  1.80000000e+00  1.80000000e+00  1.80000000e+00  1.80000000e+00  1.79377687e+00  1.79305014e+00  1.79997620e+00  1.79999960e+00  1.79999697e+00 
 1.04341814e-08  0.00000000e+00  1.80000000e+00  1.80000000e+00  1.80000000e+00  1.80000000e+00  1.80000000e+00  1.80000000e+00  1.80000000e+00  1.80000000e+00  1.76767593e+00  1.84398865e+00  1.79998536e+00  1.80000001e+00  1.80000191e+00 
 1.04789019e-08  0.00000000e+00  1.80000000e+00  1.80000000e+00  1.80000000e+00  1.80000000e+00  1.80000000e+00  1.80000000e+00  1.80000000e+00  1.80000000e+00  1.75213479e+00  1.57931248e+00  1.79998111e+00  1.80000008e+00  1.79999885e+00 
 1.05295057e-08  0.00000000e+00  1.80000000e+00  1.80000000e+00  1.80000000e+00  1.80000000e+00  1.80000000e+00  1.80000000e+00  1.80000000e+00  1.80000000e+00  1.82888503e+00  4.93357859e-01  1.79998139e+00  1.79999987e+00  1.80000056e+00 
 1.05655195e-08  0.00000000e+00  1.80000000e+00  1.80000000e+00  1.80000000e+00  1.80000000e+00  1.80000000e+00  1.80000000e+00  1.80000000e+00  1.80000000e+00  1.94285419e+00  3.04204106e-02  1.79998279e+00  1.80000023e+00  1.79999978e+00 
 1.06001898e-08  0.00000000e+00  1.80000000e+00  1.80000000e+00  1.80000000e+00  1.80000000e+00  1.80000000e+00  1.80000000e+00  1.80000000e+00  1.80000000e+00  1.50020775e+00  1.68430183e-02  1.79998509e+00  1.80000007e+00  1.80000075e+00 
 1.06338048e-08  0.00000000e+00  1.80000000e+00  1.80000000e+00  1.80000000e+00  1.80000000e+00  1.80000000e+00  1.80000000e+00  1.80000000e+00  1.80000000e+00  5.59485575e-01 -3.29954618e-03  1.79997900e+00  1.79999964e+00  1.79999748e+00 
 1.06575586e-08  0.00000000e+00  1.80000000e+00  1.80000000e+00  1.80000000e+00  1.80000000e+00  1.80000000e+00  1.80000000e+00  1.80000000e+00  1.80000000e+00  1.60374806e-01 -4.88161248e-02  1.79998416e+00  1.80000034e+00  1.80000307e+00 
 1.06854698e-08  0.00000000e+00  1.80000000e+00  1.80000000e+00  1.80000000e+00  1.80000000e+00  1.80000000e+00  1.80000000e+00  1.80000000e+00  1.80000000e+00  2.77095139e-02 -6.02778230e-02  1.79998071e+00  1.79999970e+00  1.79999698e+00 
 1.07145633e-08  0.00000000e+00  1.80000000e+00  1.80000000e+00  1.80000000e+00  1.80000000e+00  1.80000000e+00  1.80000000e+00  1.80000000e+00  1.80000000e+00  6.54506416e-03  3.45140577e-01  1.79998522e+00  1.80000026e+00  1.80000244e+00 
 1.07469342e-08  0.00000000e+00  1.80000000e+00  1.80000000e+00  1.80000000e+00  1.80000000e+00  1.80000000e+00  1.80000000e+00  1.80000000e+00  1.80000000e+00  1.13810424e-03  1.06341580e+00  1.79998172e+00  1.79999971e+00  1.79999748e+00 
 1.07832902e-08  0.00000000e+00  1.80000000e+00  1.80000000e+00  1.80000000e+00  1.80000000e+00  1.80000000e+00  1.80000000e+00  1.80000000e+00  1.80000000e+00  1.38057850e-04  1.59570658e+00  1.79998303e+00  1.80000016e+00  1.80000194e+00 
 1.08217271e-08  0.00000000e+00  1.80000000e+00  1.80000000e+00  1.80000000e+00  1.80000000e+00  1.80000000e+00  1.80000000e+00  1.80000000e+00  1.80000000e+00  1.30454968e-04  1.76962153e+00  1.79998234e+00  1.79999984e+00  1.79999815e+00 
 1.08763969e-08  0.00000000e+00  1.80000000e+00  1.80000000e+00  1.80000000e+00  1.80000000e+00  1.80000000e+00  1.80000000e+00  1.80000000e+00  1.80000000e+00 -5.62679719e-05  1.80134640e+00  1.79998357e+00  1.80000007e+00  1.80000133e+00 
 1.09385041e-08  0.00000000e+00  1.80000000e+00  1.80000000e+00  1.80000000e+00  1.80000000e+00  1.80000000e+00  1.80000000e+00  1.80000000e+00  1.80000000e+00  9.34768141e-05  1.79998248e+00  1.79998201e+00  1.79999988e+00  1.79999857e+00 
 1.10393182e-08  0.00000000e+00  1.80000000e+00  1.80000000e+00  1.80000000e+00  1.80000000e+00  1.80000000e+00  1.80000000e+00  1.80000000e+00  1.80000000e+00 -7.00852417e-05  1.79989314e+00  1.79998385e+00  1.80000005e+00  1.80000108e+00 
 1.12409465e-08  0.00000000e+00  1.80000000e+00  1.80000000e+00  1.80000000e+00  1.80000000e+00  1.80000000e+00  1.80000000e+00  1.80000000e+00  1.80000000e+00  8.02622825e-05  1.80013396e+00  1.79998265e+00  1.79999989e+00  1.79999870e+00 
 1.16442029e-08  0.00000000e+00  1.80000000e+00  1.80000000e+00  1.80000000e+00  1.80000000e+00  1.80000000e+00  1.80000000e+00  1.80000000e+00  1.80000000e+00 -7.65396795e-05  1.79985687e+00  1.79998472e+00  1.80000005e+00  1.80000104e+00 
 1.24507158e-08  0.00000000e+00  1.80000000e+00  1.80000000e+00  1.80000000e+00  1.80000000e+00  1.80000000e+00  1.80000000e+00  1.80000000e+00  1.80000000e+00  7.74131930e-05  1.80014700e+00  1.79998434e+00  1.79999990e+00  1.79999875e+00 
 1.40637416e-08  0.00000000e+00  1.80000000e+00  1.80000000e+00  1.80000000e+00  1.80000000e+00  1.80000000e+00  1.80000000e+00  1.80000000e+00  1.80000000e+00 -7.70602378e-05  1.79985135e+00  1.79998755e+00  1.80000005e+00  1.80000106e+00 
 1.72897932e-08  0.00000000e+00  1.80000000e+00  1.80000000e+00  1.80000000e+00  1.80000000e+00  1.80000000e+00  1.80000000e+00  1.80000000e+00  1.80000000e+00  7.71437351e-05  1.80014955e+00  1.79998866e+00  1.79999990e+00  1.79999880e+00 
 2.00000000e-08  0.00000000e+00  1.80000000e+00  1.80000000e+00  1.80000000e+00  1.80000000e+00  1.80000000e+00  1.80000000e+00  1.80000000e+00  1.80000000e+00 -7.70393652e-05  1.79984958e+00  1.79999157e+00  1.80000005e+00  1.80000109e+00 
 2.00100000e-08  1.80000000e-01  1.80000000e+00  1.80000000e+00  1.80000000e+00  1.80000000e+00  1.80000000e+00  1.80000000e+00  1.80000000e+00  1.80000000e+00  2.27946581e-05  1.80002499e+00  1.79999129e+00  1.80000007e+00  1.80000037e+00 
 2.00300000e-08  5.40000000e-01  1.80000000e+00  1.80000000e+00  1.80000000e+00  1.80000000e+00  1.80000000e+00  1.80000000e+00  1.80000000e+00  1.80000000e+00  6.76824093e-06  1.80001638e+00  1.79999038e+00  1.79999983e+00  1.79999926e+00 
 2.00700000e-08  1.26000000e+00  1.80000000e+00  1.80000000e+00  1.80000000e+00  1.80000000e+00  1.80000000e+00  1.80000000e+00  1.80000000e+00  1.80000000e+00 -1.24811368e-04  1.79998160e+00  1.79999001e+00  1.79999988e+00  1.80000001e+00 
 2.01000000e-08  1.80000000e+00  1.80000000e+00  1.80000000e+00  1.80000000e+00  1.80000000e+00  1.80000000e+00  1.80000000e+00  1.80000000e+00  1.80000000e+00  3.58881348e-05  1.80003090e+00  1.79999733e+00  1.80000122e+00  1.80000429e+00 
 2.01040760e-08  1.80000000e+00  1.72663159e+00  1.80000000e+00  1.80000000e+00  1.80000000e+00  1.80000000e+00  1.80000000e+00  1.80000000e+00  1.80000000e+00  1.14406643e-04  1.80002383e+00  1.79999715e+00  1.80000142e+00  1.80000464e+00 
 2.01122281e-08  1.80000000e+00  1.57989477e+00  1.80000000e+00  1.80000000e+00  1.80000000e+00  1.80000000e+00  1.80000000e+00  1.80000000e+00  1.80000000e+00  3.04637146e-04  1.80002651e+00  1.80000065e+00  1.80000198e+00  1.80000546e+00 
 2.01285322e-08  1.80000000e+00  1.28642113e+00  1.80000000e+00  1.80000000e+00  1.80000000e+00  1.80000000e+00  1.80000000e+00  1.80000000e+00  1.80000000e+00  5.11909973e-04  1.80001826e+00  1.79999444e+00  1.79999929e+00  1.79999235e+00 
 2.01538975e-08  1.80000000e+00  8.29844837e-01  1.80000000e+00  1.80000000e+00  1.80000000e+00  1.80000000e+00  1.80000000e+00  1.80000000e+00  1.80000000e+00  1.00010350e-04  1.79998974e+00  1.79998019e+00  1.79999751e+00  1.79999394e+00 
 2.01816935e-08  1.80000000e+00  3.29517207e-01  1.80000000e+00  1.80000000e+00  1.80000000e+00  1.80000000e+00  1.80000000e+00  1.80000000e+00  1.80000000e+00 -1.71019265e-03  1.79997968e+00  1.79999119e+00  1.80000011e+00  1.80000477e+00 
 2.02000000e-08  1.80000000e+00  0.00000000e+00  1.80000000e+00  1.80000000e+00  1.80000000e+00  1.80000000e+00  1.80000000e+00  1.80000000e+00  1.80000000e+00 -2.83263031e-03  1.79996803e+00  1.79997686e+00  1.79999866e+00  1.79999595e+00 
 2.02048173e-08  1.80000000e+00  0.00000000e+00  1.80000000e+00  1.80000000e+00  1.80000000e+00  1.80000000e+00  1.80000000e+00  1.80000000e+00  1.80000000e+00 -2.77760713e-03  1.79998292e+00  1.79996171e+00  1.79999759e+00  1.79999225e+00 
 2.02144518e-08  1.80000000e+00  0.00000000e+00  1.80000000e+00  1.80000000e+00  1.80000000e+00  1.80000000e+00  1.80000000e+00  1.80000000e+00  1.80000000e+00 -2.49873451e-03  1.79999033e+00  1.79992127e+00  1.79999512e+00  1.79998387e+00 
 2.02337210e-08  1.80000000e+00  0.00000000e+00  1.80000000e+00  1.80000000e+00  1.80000000e+00  1.80000000e+00  1.80000000e+00  1.80000000e+00  1.80000000e+00 -1.27266092e-03  1.79997543e+00  1.79993252e+00  1.80000173e+00  1.80001269e+00 
 2.02656617e-08  1.80000000e+00  0.00000000e+00  1.80000000e+00  1.80000000e+00  1.80000000e+00  1.80000000e+00  1.80000000e+00  1.80000000e+00  1.80000000e+00  9.20590118e-04  1.79982690e+00  1.80005167e+00  1.80000545e+00  1.80001537e+00 
