 time            v(CLK)          v(A0i)          v(A1i)          v(A2i)          v(A3i)          v(A4i)          v(B0i)          v(B1i)          v(B2i)          v(B3i)          v(B4i)          v(Cini)         v(S0o)          v(S1o)          v(S2o)          v(S3o)          v(S4o)          v(Couto)       
 0.00000000e+00  0.00000000e+00  0.00000000e+00  0.00000000e+00  0.00000000e+00  0.00000000e+00  0.00000000e+00  0.00000000e+00  0.00000000e+00  0.00000000e+00  0.00000000e+00  0.00000000e+00  0.00000000e+00  1.79999998e+00  1.79999998e+00  4.54959266e-08  1.79999998e+00  1.79999998e+00  4.56319319e-08 
 1.00000000e-12  1.80000000e-02  1.80000000e-02  1.80000000e-02  1.80000000e-02  1.80000000e-02  1.80000000e-02  1.80000000e-02  1.80000000e-02  1.80000000e-02  1.80000000e-02  1.80000000e-02  1.80000000e-02  1.80001220e+00  1.80001214e+00  1.23538089e-05  1.80001218e+00  1.80001207e+00  1.31851910e-05 
 2.00000000e-12  3.60000000e-02  3.60000000e-02  3.60000000e-02  3.60000000e-02  3.60000000e-02  3.60000000e-02  3.60000000e-02  3.60000000e-02  3.60000000e-02  3.60000000e-02  3.60000000e-02  3.60000000e-02  1.80002030e+00  1.80002019e+00  2.19440349e-05  1.80002022e+00  1.80001999e+00  2.32611209e-05 
 4.00000000e-12  7.20000000e-02  7.20000000e-02  7.20000000e-02  7.20000000e-02  7.20000000e-02  7.20000000e-02  7.20000000e-02  7.20000000e-02  7.20000000e-02  7.20000000e-02  7.20000000e-02  7.20000000e-02  1.80002993e+00  1.80002969e+00  3.52715397e-05  1.80002969e+00  1.80002922e+00  3.69388129e-05 
 8.00000000e-12  1.44000000e-01  1.44000000e-01  1.44000000e-01  1.44000000e-01  1.44000000e-01  1.44000000e-01  1.44000000e-01  1.44000000e-01  1.44000000e-01  1.44000000e-01  1.44000000e-01  1.44000000e-01  1.80002643e+00  1.80002593e+00  3.45303265e-05  1.80002586e+00  1.80002505e+00  3.49182781e-05 
 1.60000000e-11  2.88000000e-01  2.88000000e-01  2.88000000e-01  2.88000000e-01  2.88000000e-01  2.88000000e-01  2.88000000e-01  2.88000000e-01  2.88000000e-01  2.88000000e-01  2.88000000e-01  2.88000000e-01  1.80000233e+00  1.80000163e+00  3.89535103e-06  1.80000167e+00  1.80000089e+00  2.22680016e-06 
 3.20000000e-11  5.76000000e-01  5.76000000e-01  5.76000000e-01  5.76000000e-01  5.76000000e-01  5.76000000e-01  5.76000000e-01  5.76000000e-01  5.76000000e-01  5.76000000e-01  5.76000000e-01  5.76000000e-01  1.79998170e+00  1.79998165e+00 -2.42563291e-05  1.79998191e+00  1.79998210e+00 -2.48025422e-05 
 6.04626148e-11  1.08832707e+00  1.08832707e+00  1.08832707e+00  1.08832707e+00  1.08832707e+00  1.08832707e+00  1.08832707e+00  1.08832707e+00  1.08832707e+00  1.08832707e+00  1.08832707e+00  1.08832707e+00  1.79994753e+00  1.79994957e+00 -6.02422183e-05  1.79994871e+00  1.79995180e+00 -6.14783044e-05 
 8.87017828e-11  1.59663209e+00  1.59663209e+00  1.59663209e+00  1.59663209e+00  1.59663209e+00  1.59663209e+00  1.59663209e+00  1.59663209e+00  1.59663209e+00  1.59663209e+00  1.59663209e+00  1.59663209e+00  1.79992028e+00  1.79992434e+00 -9.38087934e-05  1.79992087e+00  1.79992791e+00 -9.35166624e-05 
 1.00000000e-10  1.80000000e+00  1.80000000e+00  1.80000000e+00  1.80000000e+00  1.80000000e+00  1.80000000e+00  1.80000000e+00  1.80000000e+00  1.80000000e+00  1.80000000e+00  1.80000000e+00  1.80000000e+00  1.79999173e+00  1.79999534e+00 -1.35373803e-05  1.79999341e+00  1.79999717e+00 -4.79491482e-06 
 1.03073702e-10  1.80000000e+00  1.80000000e+00  1.80000000e+00  1.80000000e+00  1.80000000e+00  1.80000000e+00  1.80000000e+00  1.80000000e+00  1.80000000e+00  1.80000000e+00  1.80000000e+00  1.80000000e+00  1.80003370e+00  1.80003642e+00  3.83395872e-05  1.80003510e+00  1.80003675e+00  5.25121961e-05 
 1.09221107e-10  1.80000000e+00  1.80000000e+00  1.80000000e+00  1.80000000e+00  1.80000000e+00  1.80000000e+00  1.80000000e+00  1.80000000e+00  1.80000000e+00  1.80000000e+00  1.80000000e+00  1.80000000e+00  1.80019723e+00  1.80019723e+00  2.31862801e-04  1.80019746e+00  1.80019332e+00  2.61449217e-04 
 1.21515915e-10  1.80000000e+00  1.80000000e+00  1.80000000e+00  1.80000000e+00  1.80000000e+00  1.80000000e+00  1.80000000e+00  1.80000000e+00  1.80000000e+00  1.80000000e+00  1.80000000e+00  1.80000000e+00  1.80057600e+00  1.80056541e+00  7.07785575e-04  1.80057199e+00  1.80055292e+00  7.27383121e-04 
 1.46105533e-10  1.80000000e+00  1.80000000e+00  1.80000000e+00  1.80000000e+00  1.80000000e+00  1.80000000e+00  1.80000000e+00  1.80000000e+00  1.80000000e+00  1.80000000e+00  1.80000000e+00  1.80000000e+00  1.80130728e+00  1.80127236e+00  1.55587108e-03  1.80129527e+00  1.80128192e+00  1.57553688e-03 
 1.70189741e-10  1.80000000e+00  1.80000000e+00  1.80000000e+00  1.80000000e+00  1.80000000e+00  1.80000000e+00  1.80000000e+00  1.80000000e+00  1.80000000e+00  1.80000000e+00  1.80000000e+00  1.80000000e+00  1.80154010e+00  1.80148230e+00  1.76541982e-03  1.80152309e+00  1.80152685e+00  1.76164903e-03 
 1.99811103e-10  1.80000000e+00  1.80000000e+00  1.80000000e+00  1.80000000e+00  1.80000000e+00  1.80000000e+00  1.80000000e+00  1.80000000e+00  1.80000000e+00  1.80000000e+00  1.80000000e+00  1.80000000e+00  1.79865753e+00  1.79862984e+00 -1.32680822e-03  1.79864352e+00  1.79865808e+00 -1.70245937e-03 
 2.30374478e-10  1.80000000e+00  1.80000000e+00  1.80000000e+00  1.80000000e+00  1.80000000e+00  1.80000000e+00  1.80000000e+00  1.80000000e+00  1.80000000e+00  1.80000000e+00  1.80000000e+00  1.80000000e+00  1.78445195e+00  1.78481187e+00 -1.56782295e-02  1.78448839e+00  1.78447578e+00 -1.69724325e-02 
 2.64462081e-10  1.80000000e+00  1.80000000e+00  1.80000000e+00  1.80000000e+00  1.80000000e+00  1.80000000e+00  1.80000000e+00  1.80000000e+00  1.80000000e+00  1.80000000e+00  1.80000000e+00  1.80000000e+00  1.82524696e+00  1.82487500e+00 -9.22302689e-03  1.82528387e+00  1.82518635e+00 -6.34199480e-03 
 3.00327833e-10  1.80000000e+00  1.80000000e+00  1.80000000e+00  1.80000000e+00  1.80000000e+00  1.80000000e+00  1.80000000e+00  1.80000000e+00  1.80000000e+00  1.80000000e+00  1.80000000e+00  1.80000000e+00  1.84690396e+00  1.84742768e+00  7.30263537e-03  1.84785747e+00  1.84794940e+00  6.16964069e-03 
 3.37475350e-10  1.80000000e+00  1.80000000e+00  1.80000000e+00  1.80000000e+00  1.80000000e+00  1.80000000e+00  1.80000000e+00  1.80000000e+00  1.80000000e+00  1.80000000e+00  1.80000000e+00  1.80000000e+00  1.45025427e+00  1.45502201e+00 -2.04168055e-04  1.45427620e+00  1.45465641e+00 -8.16295272e-04 
 3.85102874e-10  1.80000000e+00  1.80000000e+00  1.80000000e+00  1.80000000e+00  1.80000000e+00  1.80000000e+00  1.80000000e+00  1.80000000e+00  1.80000000e+00  1.80000000e+00  1.80000000e+00  1.80000000e+00  5.71829987e-01  5.78046519e-01  3.07650687e-04  5.76844217e-01  5.77952055e-01  9.44249630e-04 
 4.19548395e-10  1.80000000e+00  1.80000000e+00  1.80000000e+00  1.80000000e+00  1.80000000e+00  1.80000000e+00  1.80000000e+00  1.80000000e+00  1.80000000e+00  1.80000000e+00  1.80000000e+00  1.80000000e+00  1.60582875e-01  1.64442171e-01  3.43832367e-05  1.63750577e-01  1.64447858e-01 -4.28853936e-04 
 4.60798864e-10  1.80000000e+00  1.80000000e+00  1.80000000e+00  1.80000000e+00  1.80000000e+00  1.80000000e+00  1.80000000e+00  1.80000000e+00  1.80000000e+00  1.80000000e+00  1.80000000e+00  1.80000000e+00  1.86676445e-02  1.96828843e-02  1.81414949e-05  1.92820034e-02  1.96163163e-02  3.45756794e-04 
 5.09414608e-10  1.80000000e+00  1.80000000e+00  1.80000000e+00  1.80000000e+00  1.80000000e+00  1.80000000e+00  1.80000000e+00  1.80000000e+00  1.80000000e+00  1.80000000e+00  1.80000000e+00  1.80000000e+00  4.82934197e-05  2.52135364e-05  3.81741012e-05 -1.95384632e-05  6.81791094e-05 -2.03897964e-04 
 5.61805454e-10  1.80000000e+00  1.80000000e+00  1.80000000e+00  1.80000000e+00  1.80000000e+00  1.80000000e+00  1.80000000e+00  1.80000000e+00  1.80000000e+00  1.80000000e+00  1.80000000e+00  1.80000000e+00  8.58641812e-04  8.88028579e-04 -6.08560118e-06  9.08203605e-04  8.68327913e-04  1.76566914e-04 
 6.48334557e-10  1.80000000e+00  1.80000000e+00  1.80000000e+00  1.80000000e+00  1.80000000e+00  1.80000000e+00  1.80000000e+00  1.80000000e+00  1.80000000e+00  1.80000000e+00  1.80000000e+00  1.80000000e+00 -2.69209897e-04 -2.81851877e-04  1.60032309e-05 -3.00675557e-04 -2.69652011e-04 -1.39825509e-04 
 7.48334557e-10  1.80000000e+00  1.80000000e+00  1.80000000e+00  1.80000000e+00  1.80000000e+00  1.80000000e+00  1.80000000e+00  1.80000000e+00  1.80000000e+00  1.80000000e+00  1.80000000e+00  1.80000000e+00  5.13298697e-04  5.26319941e-04 -5.89660401e-06  5.40828039e-04  5.16938968e-04  1.29973707e-04 
 8.48334557e-10  1.80000000e+00  1.80000000e+00  1.80000000e+00  1.80000000e+00  1.80000000e+00  1.80000000e+00  1.80000000e+00  1.80000000e+00  1.80000000e+00  1.80000000e+00  1.80000000e+00  1.80000000e+00 -2.66939401e-04 -2.75795223e-04  7.05449484e-06 -2.87912262e-04 -2.68930238e-04 -1.12429436e-04 
 9.48334557e-10  1.80000000e+00  1.80000000e+00  1.80000000e+00  1.80000000e+00  1.80000000e+00  1.80000000e+00  1.80000000e+00  1.80000000e+00  1.80000000e+00  1.80000000e+00  1.80000000e+00  1.80000000e+00  3.89693228e-04  3.98303666e-04 -1.71292494e-06  4.07922558e-04  3.93125155e-04  1.03634296e-04 
 1.04833456e-09  1.80000000e+00  1.80000000e+00  1.80000000e+00  1.80000000e+00  1.80000000e+00  1.80000000e+00  1.80000000e+00  1.80000000e+00  1.80000000e+00  1.80000000e+00  1.80000000e+00  1.80000000e+00 -2.31649129e-04 -2.38233167e-04  1.54023280e-06 -2.46270674e-04 -2.34385102e-04 -9.22183707e-05 
 1.14833456e-09  1.80000000e+00  1.80000000e+00  1.80000000e+00  1.80000000e+00  1.80000000e+00  1.80000000e+00  1.80000000e+00  1.80000000e+00  1.80000000e+00  1.80000000e+00  1.80000000e+00  1.80000000e+00  3.15941883e-04  3.22418639e-04  1.77418809e-06  3.28896643e-04  3.19626508e-04  8.55133465e-05 
 1.24833456e-09  1.80000000e+00  1.80000000e+00  1.80000000e+00  1.80000000e+00  1.80000000e+00  1.80000000e+00  1.80000000e+00  1.80000000e+00  1.80000000e+00  1.80000000e+00  1.80000000e+00  1.80000000e+00 -2.00029261e-04 -2.05220527e-04 -1.98200069e-06 -2.10629582e-04 -2.03212136e-04 -7.75001610e-05 
 1.34833456e-09  1.80000000e+00  1.80000000e+00  1.80000000e+00  1.80000000e+00  1.80000000e+00  1.80000000e+00  1.80000000e+00  1.80000000e+00  1.80000000e+00  1.80000000e+00  1.80000000e+00  1.80000000e+00  2.65726331e-04  2.70954950e-04  4.08927752e-06  2.75436236e-04  2.69590819e-04  7.24552618e-05 
 1.44833456e-09  1.80000000e+00  1.80000000e+00  1.80000000e+00  1.80000000e+00  1.80000000e+00  1.80000000e+00  1.80000000e+00  1.80000000e+00  1.80000000e+00  1.80000000e+00  1.80000000e+00  1.80000000e+00 -1.74607921e-04 -1.79027584e-04 -4.08114037e-06 -1.82839645e-04 -1.78081349e-04 -6.65612620e-05 
 1.54833456e-09  1.80000000e+00  1.80000000e+00  1.80000000e+00  1.80000000e+00  1.80000000e+00  1.80000000e+00  1.80000000e+00  1.80000000e+00  1.80000000e+00  1.80000000e+00  1.80000000e+00  1.80000000e+00  2.29265504e-04  2.33821421e-04  5.39925325e-06  2.37054399e-04  2.33263676e-04  6.27104203e-05 
 1.64833456e-09  1.80000000e+00  1.80000000e+00  1.80000000e+00  1.80000000e+00  1.80000000e+00  1.80000000e+00  1.80000000e+00  1.80000000e+00  1.80000000e+00  1.80000000e+00  1.80000000e+00  1.80000000e+00 -1.54335534e-04 -1.58375864e-04 -5.16953970e-06 -1.61173446e-04 -1.58004752e-04 -5.82062890e-05 
 1.74833456e-09  1.80000000e+00  1.80000000e+00  1.80000000e+00  1.80000000e+00  1.80000000e+00  1.80000000e+00  1.80000000e+00  1.80000000e+00  1.80000000e+00  1.80000000e+00  1.80000000e+00  1.80000000e+00  2.01515622e-04  2.05760789e-04  5.96053343e-06  2.08183719e-04  2.05610898e-04  5.51972153e-05 
 1.84833456e-09  1.80000000e+00  1.80000000e+00  1.80000000e+00  1.80000000e+00  1.80000000e+00  1.80000000e+00  1.80000000e+00  1.80000000e+00  1.80000000e+00  1.80000000e+00  1.80000000e+00  1.80000000e+00 -1.37868691e-04 -1.41790893e-04 -5.56197993e-06 -1.43918296e-04 -1.41676577e-04 -5.16357220e-05 
 1.94833456e-09  1.80000000e+00  1.80000000e+00  1.80000000e+00  1.80000000e+00  1.80000000e+00  1.80000000e+00  1.80000000e+00  1.80000000e+00  1.80000000e+00  1.80000000e+00  1.80000000e+00  1.80000000e+00  1.79540292e-04  1.83711855e-04  6.00165337e-06  1.85586561e-04  1.83708217e-04  4.92218291e-05 
 2.04833456e-09  1.80000000e+00  1.80000000e+00  1.80000000e+00  1.80000000e+00  1.80000000e+00  1.80000000e+00  1.80000000e+00  1.80000000e+00  1.80000000e+00  1.80000000e+00  1.80000000e+00  1.80000000e+00 -1.24142970e-04 -1.28121146e-04 -5.49157313e-06 -1.29784438e-04 -1.28054034e-04 -4.63178105e-05 
 2.14833456e-09  1.80000000e+00  1.80000000e+00  1.80000000e+00  1.80000000e+00  1.80000000e+00  1.80000000e+00  1.80000000e+00  1.80000000e+00  1.80000000e+00  1.80000000e+00  1.80000000e+00  1.80000000e+00  1.61535183e-04  1.65788754e-04  5.69979193e-06  1.67272645e-04  1.65759673e-04  4.43303284e-05 
 2.24833456e-09  1.80000000e+00  1.80000000e+00  1.80000000e+00  1.80000000e+00  1.80000000e+00  1.80000000e+00  1.80000000e+00  1.80000000e+00  1.80000000e+00  1.80000000e+00  1.80000000e+00  1.80000000e+00 -1.12404817e-04 -1.16552835e-04 -5.12516486e-06 -1.17876176e-04 -1.16396098e-04 -4.18973234e-05 
 2.34833456e-09  1.80000000e+00  1.80000000e+00  1.80000000e+00  1.80000000e+00  1.80000000e+00  1.80000000e+00  1.80000000e+00  1.80000000e+00  1.80000000e+00  1.80000000e+00  1.80000000e+00  1.80000000e+00  1.46356545e-04  1.50792462e-04  5.18359988e-06  1.51980799e-04  1.50626827e-04  4.02214041e-05 
 2.44833456e-09  1.80000000e+00  1.80000000e+00  1.80000000e+00  1.80000000e+00  1.80000000e+00  1.80000000e+00  1.80000000e+00  1.80000000e+00  1.80000000e+00  1.80000000e+00  1.80000000e+00  1.80000000e+00 -1.02140943e-04 -1.06530747e-04 -4.57887025e-06 -1.07589687e-04 -1.06197011e-04 -3.81351277e-05 
 2.54833456e-09  1.80000000e+00  1.80000000e+00  1.80000000e+00  1.80000000e+00  1.80000000e+00  1.80000000e+00  1.80000000e+00  1.80000000e+00  1.80000000e+00  1.80000000e+00  1.80000000e+00  1.80000000e+00  1.33261812e-04  1.37942504e-04  4.54285335e-06  1.38893701e-04  1.37570509e-04  3.66924184e-05 
 2.64833456e-09  1.80000000e+00  1.80000000e+00  1.80000000e+00  1.80000000e+00  1.80000000e+00  1.80000000e+00  1.80000000e+00  1.80000000e+00  1.80000000e+00  1.80000000e+00  1.80000000e+00  1.80000000e+00 -9.30055395e-05 -9.76799670e-05 -3.93166609e-06 -9.85213487e-05 -9.71157090e-05 -3.48685793e-05 
 2.74833456e-09  1.80000000e+00  1.80000000e+00  1.80000000e+00  1.80000000e+00  1.80000000e+00  1.80000000e+00  1.80000000e+00  1.80000000e+00  1.80000000e+00  1.80000000e+00  1.80000000e+00  1.80000000e+00  1.21757993e-04  1.26719816e-04  3.83842224e-06  1.27470624e-04  1.26099973e-04  3.36052394e-05 
 2.84833456e-09  1.80000000e+00  1.80000000e+00  1.80000000e+00  1.80000000e+00  1.80000000e+00  1.80000000e+00  1.80000000e+00  1.80000000e+00  1.80000000e+00  1.80000000e+00  1.80000000e+00  1.80000000e+00 -8.47648174e-05 -8.97465797e-05 -3.23618325e-06 -9.04004641e-05 -8.89215132e-05 -3.19856844e-05 
 2.94833456e-09  1.80000000e+00  1.80000000e+00  1.80000000e+00  1.80000000e+00  1.80000000e+00  1.80000000e+00  1.80000000e+00  1.80000000e+00  1.80000000e+00  1.80000000e+00  1.80000000e+00  1.80000000e+00  1.11510111e-04  1.16771513e-04  3.11056489e-06  1.17346113e-04  1.15881773e-04  3.08643078e-05 
 3.04833456e-09  1.80000000e+00  1.80000000e+00  1.80000000e+00  1.80000000e+00  1.80000000e+00  1.80000000e+00  1.80000000e+00  1.80000000e+00  1.80000000e+00  1.80000000e+00  1.80000000e+00  1.80000000e+00 -7.72585380e-05 -8.25565238e-05 -2.52677678e-06 -8.30432948e-05 -8.14562946e-05 -2.94081853e-05 
 3.14833456e-09  1.80000000e+00  1.80000000e+00  1.80000000e+00  1.80000000e+00  1.80000000e+00  1.80000000e+00  1.80000000e+00  1.80000000e+00  1.80000000e+00  1.80000000e+00  1.80000000e+00  1.80000000e+00  1.02284765e-04  1.07851945e-04  2.38523151e-06  1.08267348e-04  1.06683566e-04  2.84024002e-05 
 3.24833456e-09  1.80000000e+00  1.80000000e+00  1.80000000e+00  1.80000000e+00  1.80000000e+00  1.80000000e+00  1.80000000e+00  1.80000000e+00  1.80000000e+00  1.80000000e+00  1.80000000e+00  1.80000000e+00 -7.03743959e-05 -7.59880823e-05 -1.82566736e-06 -7.63226471e-05 -7.46092002e-05 -2.70804432e-05 
 3.34833456e-09  1.80000000e+00  1.80000000e+00  1.80000000e+00  1.80000000e+00  1.80000000e+00  1.80000000e+00  1.80000000e+00  1.80000000e+00  1.80000000e+00  1.80000000e+00  1.80000000e+00  1.80000000e+00  9.39148006e-05  9.97856504e-05  1.67881225e-06  1.00054861e-04  9.83389246e-05  2.61713108e-05 
 3.44833456e-09  1.80000000e+00  1.80000000e+00  1.80000000e+00  1.80000000e+00  1.80000000e+00  1.80000000e+00  1.80000000e+00  1.80000000e+00  1.80000000e+00  1.80000000e+00  1.80000000e+00  1.80000000e+00 -6.40312935e-05 -6.99538422e-05 -1.14433467e-06 -7.01480691e-05 -6.83001312e-05 -2.49620937e-05 
 3.54833456e-09  1.80000000e+00  1.80000000e+00  1.80000000e+00  1.80000000e+00  1.80000000e+00  1.80000000e+00  1.80000000e+00  1.80000000e+00  1.80000000e+00  1.80000000e+00  1.80000000e+00  1.80000000e+00  8.62769303e-05  9.24437898e-05  1.00031967e-06  9.25776219e-05  9.07250411e-05  2.41357076e-05 
 3.64833456e-09  1.80000000e+00  1.80000000e+00  1.80000000e+00  1.80000000e+00  1.80000000e+00  1.80000000e+00  1.80000000e+00  1.80000000e+00  1.80000000e+00  1.80000000e+00  1.80000000e+00  1.80000000e+00 -5.81685223e-05 -6.43889633e-05 -4.93847323e-07 -6.44530624e-05 -6.24690673e-05 -2.30231715e-05 
 3.74833456e-09  1.80000000e+00  1.80000000e+00  1.80000000e+00  1.80000000e+00  1.80000000e+00  1.80000000e+00  1.80000000e+00  1.80000000e+00  1.80000000e+00  1.80000000e+00  1.80000000e+00  1.80000000e+00  7.92773722e-05  8.57289823e-05  3.56032029e-07  8.57370668e-05  8.37484601e-05  2.22690523e-05 
 3.84833456e-09  1.80000000e+00  1.80000000e+00  1.80000000e+00  1.80000000e+00  1.80000000e+00  1.80000000e+00  1.80000000e+00  1.80000000e+00  1.80000000e+00  1.80000000e+00  1.80000000e+00  1.80000000e+00 -5.27388059e-05 -5.92435806e-05  1.22950451e-07 -5.91868553e-05 -5.70692162e-05 -2.12408563e-05 
 3.94833456e-09  1.80000000e+00  1.80000000e+00  1.80000000e+00  1.80000000e+00  1.80000000e+00  1.80000000e+00  1.80000000e+00  1.80000000e+00  1.80000000e+00  1.80000000e+00  1.80000000e+00  1.80000000e+00  7.28425709e-05  7.95654417e-05 -2.52023277e-07  7.94567542e-05  7.73358443e-05  2.05508848e-05 
 4.04833456e-09  1.80000000e+00  1.80000000e+00  1.80000000e+00  1.80000000e+00  1.80000000e+00  1.80000000e+00  1.80000000e+00  1.80000000e+00  1.80000000e+00  1.80000000e+00  1.80000000e+00  1.80000000e+00 -4.77038573e-05 -5.44779010e-05  7.04367013e-07 -5.43091283e-05 -5.20626303e-05 -1.95973053e-05 
 4.14833456e-09  1.80000000e+00  1.80000000e+00  1.80000000e+00  1.80000000e+00  1.80000000e+00  1.80000000e+00  1.80000000e+00  1.80000000e+00  1.80000000e+00  1.80000000e+00  1.80000000e+00  1.80000000e+00  6.69131374e-05  7.38925095e-05 -8.23170297e-07  7.36756226e-05  7.14279435e-05  1.89650098e-05 
 4.24833456e-09  1.80000000e+00  1.80000000e+00  1.80000000e+00  1.80000000e+00  1.80000000e+00  1.80000000e+00  1.80000000e+00  1.80000000e+00  1.80000000e+00  1.80000000e+00  1.80000000e+00  1.80000000e+00 -4.30315430e-05 -5.00590448e-05  1.25006791e-06 -4.97866453e-05 -4.74174101e-05 -1.80781940e-05 
 4.34833456e-09  1.80000000e+00  1.80000000e+00  1.80000000e+00  1.80000000e+00  1.80000000e+00  1.80000000e+00  1.80000000e+00  1.80000000e+00  1.80000000e+00  1.80000000e+00  1.80000000e+00  1.80000000e+00  6.14398448e-05  6.86603671e-05 -1.35781763e-06  6.83435480e-05  6.59756125e-05  1.74982672e-05 
 4.44833456e-09  1.80000000e+00  1.80000000e+00  1.80000000e+00  1.80000000e+00  1.80000000e+00  1.80000000e+00  1.80000000e+00  1.80000000e+00  1.80000000e+00  1.80000000e+00  1.80000000e+00  1.80000000e+00 -3.86940674e-05 -4.59590043e-05  1.76065726e-06 -4.55910983e-05 -4.31059189e-05 -1.66716660e-05 
